<Qucs Dataset 0.0.15>
<indep x 10>
  +5.00000000000e+00
  +1.00000000000e+01
  +1.50000000000e+01
  +2.00000000000e+01
  +2.50000000000e+01
  +3.00000000000e+01
  +3.50000000000e+01
  +4.00000000000e+01
  +4.50000000000e+01
  +5.00000000000e+01
</indep>
<dep V1.I x>
  -1.81818181818e-02
  -1.66666666667e-02
  -1.53846153846e-02
  -1.42857142857e-02
  -1.33333333333e-02
  -1.25000000000e-02
  -1.17647058824e-02
  -1.11111111111e-02
  -1.05263157895e-02
  -1.00000000000e-02
</dep>
<dep Izeja.V x>
  +9.09090909091e-02
  +1.66666666667e-01
  +2.30769230769e-01
  +2.85714285714e-01
  +3.33333333333e-01
  +3.75000000000e-01
  +4.11764705882e-01
  +4.44444444444e-01
  +4.73684210526e-01
  +5.00000000000e-01
</dep>
<dep _net0.V x>
  +1.00000000000e+00
  +1.00000000000e+00
  +1.00000000000e+00
  +1.00000000000e+00
  +1.00000000000e+00
  +1.00000000000e+00
  +1.00000000000e+00
  +1.00000000000e+00
  +1.00000000000e+00
  +1.00000000000e+00
</dep>
